v1	I(V2)	I(V3)	I(V4)	I(V5)
Step Information: Run=1  (Run: 1/500)
0.000000000000000e+000	0.000000e+000	0.000000e+000	0.000000e+000	0.000000e+000
3.330000000000000e-001	3.334058e-005	1.663349e-005	8.304945e-006	4.142846e-006
6.660000000000000e-001	6.668117e-005	3.326697e-005	1.660989e-005	8.285691e-006
9.990000000000001e-001	1.000218e-004	4.990046e-005	2.491484e-005	1.242854e-005
1.000000000000000e+000	1.001219e-004	4.995041e-005	2.493977e-005	1.244098e-005
Step Information: Run=2  (Run: 2/500)
0.000000000000000e+000	0.000000e+000	0.000000e+000	0.000000e+000	0.000000e+000
3.330000000000000e-001	3.331642e-005	1.659317e-005	8.304341e-006	4.177264e-006
6.660000000000000e-001	6.663283e-005	3.318635e-005	1.660868e-005	8.354528e-006
9.990000000000001e-001	9.994925e-005	4.977952e-005	2.491302e-005	1.253179e-005
1.000000000000000e+000	1.000493e-004	4.982935e-005	2.493796e-005	1.254434e-005
Step Information: Run=3  (Run: 3/500)
0.000000000000000e+000	0.000000e+000	0.000000e+000	0.000000e+000	0.000000e+000
3.330000000000000e-001	3.325795e-005	1.665488e-005	8.338680e-006	4.163530e-006
6.660000000000000e-001	6.651591e-005	3.330976e-005	1.667736e-005	8.327060e-006
9.990000000000001e-001	9.977387e-005	4.996464e-005	2.501604e-005	1.249059e-005
1.000000000000000e+000	9.987374e-005	5.001466e-005	2.504108e-005	1.250309e-005
Step Information: Run=4  (Run: 4/500)
0.000000000000000e+000	0.000000e+000	0.000000e+000	0.000000e+000	0.000000e+000
3.330000000000000e-001	3.327079e-005	1.666694e-005	8.326588e-006	4.165845e-006
6.660000000000000e-001	6.654159e-005	3.333388e-005	1.665318e-005	8.331691e-006
9.990000000000001e-001	9.981238e-005	5.000081e-005	2.497976e-005	1.249754e-005
1.000000000000000e+000	9.991229e-005	5.005086e-005	2.500477e-005	1.251005e-005
Step Information: Run=5  (Run: 5/500)
0.000000000000000e+000	0.000000e+000	0.000000e+000	0.000000e+000	0.000000e+000
3.330000000000000e-001	3.326628e-005	1.666104e-005	8.313304e-006	4.157769e-006
6.660000000000000e-001	6.653256e-005	3.332209e-005	1.662661e-005	8.315537e-006
9.990000000000001e-001	9.979884e-005	4.998313e-005	2.493991e-005	1.247331e-005
1.000000000000000e+000	9.989874e-005	5.003316e-005	2.496488e-005	1.248579e-005
Step Information: Run=6  (Run: 6/500)
0.000000000000000e+000	0.000000e+000	0.000000e+000	0.000000e+000	0.000000e+000
3.330000000000000e-001	3.320229e-005	1.666972e-005	8.329363e-006	4.168654e-006
6.660000000000000e-001	6.640459e-005	3.333944e-005	1.665873e-005	8.337307e-006
9.990000000000001e-001	9.960688e-005	5.000916e-005	2.498809e-005	1.250596e-005
1.000000000000000e+000	9.970658e-005	5.005922e-005	2.501310e-005	1.251848e-005
Step Information: Run=7  (Run: 7/500)
0.000000000000000e+000	0.000000e+000	0.000000e+000	0.000000e+000	0.000000e+000
3.330000000000000e-001	3.334914e-005	1.660096e-005	8.342501e-006	4.156011e-006
6.660000000000000e-001	6.669827e-005	3.320191e-005	1.668500e-005	8.312021e-006
9.990000000000001e-001	1.000474e-004	4.980287e-005	2.502750e-005	1.246803e-005
1.000000000000000e+000	1.001476e-004	4.985272e-005	2.505256e-005	1.248051e-005
Step Information: Run=8  (Run: 8/500)
0.000000000000000e+000	0.000000e+000	0.000000e+000	0.000000e+000	0.000000e+000
3.330000000000000e-001	3.321095e-005	1.667834e-005	8.344758e-006	4.159364e-006
6.660000000000000e-001	6.642190e-005	3.335669e-005	1.668952e-005	8.318728e-006
9.990000000000001e-001	9.963285e-005	5.003503e-005	2.503428e-005	1.247809e-005
1.000000000000000e+000	9.973259e-005	5.008512e-005	2.505934e-005	1.249058e-005
Step Information: Run=9  (Run: 9/500)
0.000000000000000e+000	0.000000e+000	0.000000e+000	0.000000e+000	0.000000e+000
3.330000000000000e-001	3.316066e-005	1.665153e-005	8.355281e-006	4.151640e-006
6.660000000000000e-001	6.632132e-005	3.330305e-005	1.671056e-005	8.303281e-006
9.990000000000001e-001	9.948199e-005	4.995457e-005	2.506584e-005	1.245492e-005
1.000000000000000e+000	9.958156e-005	5.000458e-005	2.509093e-005	1.246739e-005
Step Information: Run=10  (Run: 10/500)
0.000000000000000e+000	0.000000e+000	0.000000e+000	0.000000e+000	0.000000e+000
3.330000000000000e-001	3.319312e-005	1.666281e-005	8.315096e-006	4.167588e-006
6.660000000000000e-001	6.638624e-005	3.332562e-005	1.663019e-005	8.335177e-006
9.990000000000001e-001	9.957936e-005	4.998842e-005	2.494529e-005	1.250277e-005
1.000000000000000e+000	9.967903e-005	5.003846e-005	2.497026e-005	1.251528e-005
Step Information: Run=11  (Run: 11/500)
0.000000000000000e+000	0.000000e+000	0.000000e+000	0.000000e+000	0.000000e+000
3.330000000000000e-001	3.337328e-005	1.665295e-005	8.328281e-006	4.163079e-006
6.660000000000000e-001	6.674656e-005	3.330589e-005	1.665656e-005	8.326158e-006
9.990000000000001e-001	1.001198e-004	4.995884e-005	2.498484e-005	1.248924e-005
1.000000000000000e+000	1.002201e-004	5.000885e-005	2.500985e-005	1.250174e-005
Step Information: Run=12  (Run: 12/500)
0.000000000000000e+000	0.000000e+000	0.000000e+000	0.000000e+000	0.000000e+000
3.330000000000000e-001	3.326038e-005	1.664779e-005	8.331846e-006	4.163174e-006
6.660000000000000e-001	6.652076e-005	3.329559e-005	1.666369e-005	8.326349e-006
9.990000000000001e-001	9.978113e-005	4.994338e-005	2.499554e-005	1.248952e-005
1.000000000000000e+000	9.988101e-005	4.999337e-005	2.502056e-005	1.250203e-005
Step Information: Run=13  (Run: 13/500)
0.000000000000000e+000	0.000000e+000	0.000000e+000	0.000000e+000	0.000000e+000
3.330000000000000e-001	3.335221e-005	1.666591e-005	8.349386e-006	4.143232e-006
6.660000000000000e-001	6.670442e-005	3.333182e-005	1.669877e-005	8.286464e-006
9.990000000000001e-001	1.000566e-004	4.999773e-005	2.504816e-005	1.242970e-005
1.000000000000000e+000	1.001568e-004	5.004778e-005	2.507323e-005	1.244214e-005
Step Information: Run=14  (Run: 14/500)
0.000000000000000e+000	0.000000e+000	0.000000e+000	0.000000e+000	0.000000e+000
3.330000000000000e-001	3.329967e-005	1.665527e-005	8.321011e-006	4.160625e-006
6.660000000000000e-001	6.659934e-005	3.331055e-005	1.664202e-005	8.321250e-006
9.990000000000001e-001	9.989901e-005	4.996582e-005	2.496303e-005	1.248188e-005
1.000000000000000e+000	9.999901e-005	5.001583e-005	2.498802e-005	1.249437e-005
Step Information: Run=15  (Run: 15/500)
0.000000000000000e+000	0.000000e+000	0.000000e+000	0.000000e+000	0.000000e+000
3.330000000000000e-001	3.325179e-005	1.668009e-005	8.342801e-006	4.151809e-006
6.660000000000000e-001	6.650358e-005	3.336019e-005	1.668560e-005	8.303618e-006
9.990000000000001e-001	9.975537e-005	5.004027e-005	2.502840e-005	1.245543e-005
1.000000000000000e+000	9.985523e-005	5.009037e-005	2.505346e-005	1.246790e-005
Step Information: Run=16  (Run: 16/500)
0.000000000000000e+000	0.000000e+000	0.000000e+000	0.000000e+000	0.000000e+000
3.330000000000000e-001	3.324613e-005	1.664442e-005	8.331102e-006	4.161132e-006
6.660000000000000e-001	6.649226e-005	3.328885e-005	1.666220e-005	8.322263e-006
9.990000000000001e-001	9.973839e-005	4.993327e-005	2.499331e-005	1.248339e-005
1.000000000000000e+000	9.983823e-005	4.998326e-005	2.501832e-005	1.249589e-005
Step Information: Run=17  (Run: 17/500)
0.000000000000000e+000	0.000000e+000	0.000000e+000	0.000000e+000	0.000000e+000
3.330000000000000e-001	3.335584e-005	1.661378e-005	8.327645e-006	4.156590e-006
6.660000000000000e-001	6.671168e-005	3.322756e-005	1.665529e-005	8.313180e-006
9.990000000000001e-001	1.000675e-004	4.984135e-005	2.498293e-005	1.246977e-005
1.000000000000000e+000	1.001677e-004	4.989124e-005	2.500794e-005	1.248225e-005
Step Information: Run=18  (Run: 18/500)
0.000000000000000e+000	0.000000e+000	0.000000e+000	0.000000e+000	0.000000e+000
3.330000000000000e-001	3.342067e-005	1.664990e-005	8.344380e-006	4.178480e-006
6.660000000000000e-001	6.684134e-005	3.329981e-005	1.668876e-005	8.356960e-006
9.990000000000001e-001	1.002620e-004	4.994971e-005	2.503314e-005	1.253544e-005
1.000000000000000e+000	1.003624e-004	4.999971e-005	2.505820e-005	1.254799e-005
Step Information: Run=19  (Run: 19/500)
0.000000000000000e+000	0.000000e+000	0.000000e+000	0.000000e+000	0.000000e+000
3.330000000000000e-001	3.329238e-005	1.670518e-005	8.332922e-006	4.168810e-006
6.660000000000000e-001	6.658476e-005	3.341035e-005	1.666584e-005	8.337621e-006
9.990000000000001e-001	9.987714e-005	5.011553e-005	2.499877e-005	1.250643e-005
1.000000000000000e+000	9.997712e-005	5.016569e-005	2.502379e-005	1.251895e-005
Step Information: Run=20  (Run: 20/500)
0.000000000000000e+000	0.000000e+000	0.000000e+000	0.000000e+000	0.000000e+000
3.330000000000000e-001	3.329214e-005	1.664586e-005	8.342889e-006	4.167008e-006
6.660000000000000e-001	6.658428e-005	3.329173e-005	1.668578e-005	8.334016e-006
9.990000000000001e-001	9.987642e-005	4.993759e-005	2.502866e-005	1.250102e-005
1.000000000000000e+000	9.997639e-005	4.998758e-005	2.505372e-005	1.251354e-005
Step Information: Run=21  (Run: 21/500)
0.000000000000000e+000	0.000000e+000	0.000000e+000	0.000000e+000	0.000000e+000
3.330000000000000e-001	3.320303e-005	1.666743e-005	8.347782e-006	4.162229e-006
6.660000000000000e-001	6.640606e-005	3.333485e-005	1.669556e-005	8.324458e-006
9.990000000000001e-001	9.960909e-005	5.000228e-005	2.504334e-005	1.248669e-005
1.000000000000000e+000	9.970880e-005	5.005233e-005	2.506841e-005	1.249919e-005
Step Information: Run=22  (Run: 22/500)
0.000000000000000e+000	0.000000e+000	0.000000e+000	0.000000e+000	0.000000e+000
3.330000000000000e-001	3.318864e-005	1.669692e-005	8.303288e-006	4.154928e-006
6.660000000000000e-001	6.637728e-005	3.339383e-005	1.660658e-005	8.309856e-006
9.990000000000001e-001	9.956591e-005	5.009075e-005	2.490987e-005	1.246478e-005
1.000000000000000e+000	9.966558e-005	5.014089e-005	2.493480e-005	1.247726e-005
Step Information: Run=23  (Run: 23/500)
0.000000000000000e+000	0.000000e+000	0.000000e+000	0.000000e+000	0.000000e+000
3.330000000000000e-001	3.328933e-005	1.663030e-005	8.316338e-006	4.165424e-006
6.660000000000000e-001	6.657866e-005	3.326061e-005	1.663268e-005	8.330849e-006
9.990000000000001e-001	9.986800e-005	4.989091e-005	2.494901e-005	1.249627e-005
1.000000000000000e+000	9.996797e-005	4.994085e-005	2.497399e-005	1.250878e-005
Step Information: Run=24  (Run: 24/500)
0.000000000000000e+000	0.000000e+000	0.000000e+000	0.000000e+000	0.000000e+000
3.330000000000000e-001	3.337933e-005	1.658211e-005	8.324333e-006	4.171877e-006
6.660000000000000e-001	6.675866e-005	3.316422e-005	1.664867e-005	8.343754e-006
9.990000000000001e-001	1.001380e-004	4.974633e-005	2.497300e-005	1.251563e-005
1.000000000000000e+000	1.002382e-004	4.979613e-005	2.499800e-005	1.252816e-005
Step Information: Run=25  (Run: 25/500)
0.000000000000000e+000	0.000000e+000	0.000000e+000	0.000000e+000	0.000000e+000
3.330000000000000e-001	3.341644e-005	1.664817e-005	8.337482e-006	4.168191e-006
6.660000000000000e-001	6.683288e-005	3.329634e-005	1.667496e-005	8.336383e-006
9.990000000000001e-001	1.002493e-004	4.994451e-005	2.501245e-005	1.250457e-005
1.000000000000000e+000	1.003497e-004	4.999450e-005	2.503748e-005	1.251709e-005
Step Information: Run=26  (Run: 26/500)
0.000000000000000e+000	0.000000e+000	0.000000e+000	0.000000e+000	0.000000e+000
3.330000000000000e-001	3.320564e-005	1.662793e-005	8.335641e-006	4.178371e-006
6.660000000000000e-001	6.641127e-005	3.325586e-005	1.667128e-005	8.356742e-006
9.990000000000001e-001	9.961691e-005	4.988378e-005	2.500692e-005	1.253511e-005
1.000000000000000e+000	9.971663e-005	4.993372e-005	2.503195e-005	1.254766e-005
Step Information: Run=27  (Run: 27/500)
0.000000000000000e+000	0.000000e+000	0.000000e+000	0.000000e+000	0.000000e+000
3.330000000000000e-001	3.331735e-005	1.664423e-005	8.318052e-006	4.161914e-006
6.660000000000000e-001	6.663470e-005	3.328847e-005	1.663610e-005	8.323827e-006
9.990000000000001e-001	9.995204e-005	4.993270e-005	2.495416e-005	1.248574e-005
1.000000000000000e+000	1.000521e-004	4.998269e-005	2.497914e-005	1.249824e-005
Step Information: Run=28  (Run: 28/500)
0.000000000000000e+000	0.000000e+000	0.000000e+000	0.000000e+000	0.000000e+000
3.330000000000000e-001	3.333723e-005	1.665189e-005	8.330236e-006	4.167375e-006
6.660000000000000e-001	6.667445e-005	3.330378e-005	1.666047e-005	8.334750e-006
9.990000000000001e-001	1.000117e-004	4.995566e-005	2.499071e-005	1.250213e-005
1.000000000000000e+000	1.001118e-004	5.000567e-005	2.501572e-005	1.251464e-005
Step Information: Run=29  (Run: 29/500)
0.000000000000000e+000	0.000000e+000	0.000000e+000	0.000000e+000	0.000000e+000
3.330000000000000e-001	3.328412e-005	1.663206e-005	8.303510e-006	4.173349e-006
6.660000000000000e-001	6.656823e-005	3.326413e-005	1.660702e-005	8.346698e-006
9.990000000000001e-001	9.985235e-005	4.989619e-005	2.491053e-005	1.252005e-005
1.000000000000000e+000	9.995230e-005	4.994614e-005	2.493547e-005	1.253258e-005
Step Information: Run=30  (Run: 30/500)
0.000000000000000e+000	0.000000e+000	0.000000e+000	0.000000e+000	0.000000e+000
3.330000000000000e-001	3.323693e-005	1.667360e-005	8.325416e-006	4.152621e-006
6.660000000000000e-001	6.647386e-005	3.334720e-005	1.665083e-005	8.305242e-006
9.990000000000001e-001	9.971079e-005	5.002079e-005	2.497625e-005	1.245786e-005
1.000000000000000e+000	9.981060e-005	5.007087e-005	2.500125e-005	1.247033e-005
Step Information: Run=31  (Run: 31/500)
0.000000000000000e+000	0.000000e+000	0.000000e+000	0.000000e+000	0.000000e+000
3.330000000000000e-001	3.329114e-005	1.664160e-005	8.331842e-006	4.172193e-006
6.660000000000000e-001	6.658228e-005	3.328320e-005	1.666368e-005	8.344386e-006
9.990000000000001e-001	9.987342e-005	4.992479e-005	2.499552e-005	1.251658e-005
1.000000000000000e+000	9.997340e-005	4.997477e-005	2.502055e-005	1.252911e-005
Step Information: Run=32  (Run: 32/500)
0.000000000000000e+000	0.000000e+000	0.000000e+000	0.000000e+000	0.000000e+000
3.330000000000000e-001	3.337019e-005	1.662112e-005	8.317465e-006	4.159798e-006
6.660000000000000e-001	6.674037e-005	3.324224e-005	1.663493e-005	8.319596e-006
9.990000000000001e-001	1.001106e-004	4.986335e-005	2.495240e-005	1.247939e-005
1.000000000000000e+000	1.002108e-004	4.991327e-005	2.497737e-005	1.249189e-005
Step Information: Run=33  (Run: 33/500)
0.000000000000000e+000	0.000000e+000	0.000000e+000	0.000000e+000	0.000000e+000
3.330000000000000e-001	3.329585e-005	1.657024e-005	8.337177e-006	4.163526e-006
6.660000000000000e-001	6.659170e-005	3.314047e-005	1.667435e-005	8.327052e-006
9.990000000000001e-001	9.988755e-005	4.971071e-005	2.501153e-005	1.249058e-005
1.000000000000000e+000	9.998753e-005	4.976047e-005	2.503657e-005	1.250308e-005
Step Information: Run=34  (Run: 34/500)
0.000000000000000e+000	0.000000e+000	0.000000e+000	0.000000e+000	0.000000e+000
3.330000000000000e-001	3.329002e-005	1.668389e-005	8.307352e-006	4.150233e-006
6.660000000000000e-001	6.658005e-005	3.336779e-005	1.661470e-005	8.300465e-006
9.990000000000001e-001	9.987007e-005	5.005168e-005	2.492206e-005	1.245070e-005
1.000000000000000e+000	9.997004e-005	5.010178e-005	2.494700e-005	1.246316e-005
Step Information: Run=35  (Run: 35/500)
0.000000000000000e+000	0.000000e+000	0.000000e+000	0.000000e+000	0.000000e+000
3.330000000000000e-001	3.329528e-005	1.661632e-005	8.330891e-006	4.176692e-006
6.660000000000000e-001	6.659056e-005	3.323265e-005	1.666178e-005	8.353384e-006
9.990000000000001e-001	9.988584e-005	4.984897e-005	2.499267e-005	1.253008e-005
1.000000000000000e+000	9.998582e-005	4.989887e-005	2.501769e-005	1.254262e-005
Step Information: Run=36  (Run: 36/500)
0.000000000000000e+000	0.000000e+000	0.000000e+000	0.000000e+000	0.000000e+000
3.330000000000000e-001	3.328011e-005	1.668412e-005	8.356398e-006	4.157389e-006
6.660000000000000e-001	6.656021e-005	3.336825e-005	1.671280e-005	8.314777e-006
9.990000000000001e-001	9.984032e-005	5.005237e-005	2.506920e-005	1.247217e-005
1.000000000000000e+000	9.994026e-005	5.010247e-005	2.509429e-005	1.248465e-005
Step Information: Run=37  (Run: 37/500)
0.000000000000000e+000	0.000000e+000	0.000000e+000	0.000000e+000	0.000000e+000
3.330000000000000e-001	3.334297e-005	1.664111e-005	8.331220e-006	4.157567e-006
6.660000000000000e-001	6.668593e-005	3.328223e-005	1.666244e-005	8.315134e-006
9.990000000000001e-001	1.000289e-004	4.992334e-005	2.499366e-005	1.247270e-005
1.000000000000000e+000	1.001290e-004	4.997331e-005	2.501868e-005	1.248519e-005
Step Information: Run=38  (Run: 38/500)
0.000000000000000e+000	0.000000e+000	0.000000e+000	0.000000e+000	0.000000e+000
3.330000000000000e-001	3.331407e-005	1.665587e-005	8.334756e-006	4.161251e-006
6.660000000000000e-001	6.662815e-005	3.331173e-005	1.666951e-005	8.322501e-006
9.990000000000001e-001	9.994222e-005	4.996760e-005	2.500427e-005	1.248375e-005
1.000000000000000e+000	1.000423e-004	5.001762e-005	2.502930e-005	1.249625e-005
Step Information: Run=39  (Run: 39/500)
0.000000000000000e+000	0.000000e+000	0.000000e+000	0.000000e+000	0.000000e+000
3.330000000000000e-001	3.329311e-005	1.666066e-005	8.306035e-006	4.175270e-006
6.660000000000000e-001	6.658622e-005	3.332131e-005	1.661207e-005	8.350539e-006
9.990000000000001e-001	9.987933e-005	4.998197e-005	2.491810e-005	1.252581e-005
1.000000000000000e+000	9.997931e-005	5.003200e-005	2.494305e-005	1.253835e-005
Step Information: Run=40  (Run: 40/500)
0.000000000000000e+000	0.000000e+000	0.000000e+000	0.000000e+000	0.000000e+000
3.330000000000000e-001	3.337095e-005	1.663927e-005	8.321378e-006	4.169459e-006
6.660000000000000e-001	6.674190e-005	3.327853e-005	1.664276e-005	8.338918e-006
9.990000000000001e-001	1.001129e-004	4.991780e-005	2.496413e-005	1.250838e-005
1.000000000000000e+000	1.002131e-004	4.996777e-005	2.498912e-005	1.252090e-005
Step Information: Run=41  (Run: 41/500)
0.000000000000000e+000	0.000000e+000	0.000000e+000	0.000000e+000	0.000000e+000
3.330000000000000e-001	3.337336e-005	1.666580e-005	8.330914e-006	4.169584e-006
6.660000000000000e-001	6.674672e-005	3.333161e-005	1.666183e-005	8.339168e-006
9.990000000000001e-001	1.001201e-004	4.999741e-005	2.499274e-005	1.250875e-005
1.000000000000000e+000	1.002203e-004	5.004746e-005	2.501776e-005	1.252127e-005
Step Information: Run=42  (Run: 42/500)
0.000000000000000e+000	0.000000e+000	0.000000e+000	0.000000e+000	0.000000e+000
3.330000000000000e-001	3.323343e-005	1.667020e-005	8.300231e-006	4.170694e-006
6.660000000000000e-001	6.646686e-005	3.334040e-005	1.660046e-005	8.341389e-006
9.990000000000001e-001	9.970029e-005	5.001060e-005	2.490070e-005	1.251208e-005
1.000000000000000e+000	9.980009e-005	5.006066e-005	2.492562e-005	1.252461e-005
Step Information: Run=43  (Run: 43/500)
0.000000000000000e+000	0.000000e+000	0.000000e+000	0.000000e+000	0.000000e+000
3.330000000000000e-001	3.334080e-005	1.659761e-005	8.332935e-006	4.156195e-006
6.660000000000000e-001	6.668159e-005	3.319521e-005	1.666587e-005	8.312390e-006
9.990000000000001e-001	1.000224e-004	4.979282e-005	2.499880e-005	1.246858e-005
1.000000000000000e+000	1.001225e-004	4.984266e-005	2.502383e-005	1.248106e-005
Step Information: Run=44  (Run: 44/500)
0.000000000000000e+000	0.000000e+000	0.000000e+000	0.000000e+000	0.000000e+000
3.330000000000000e-001	3.326793e-005	1.661987e-005	8.326124e-006	4.155896e-006
6.660000000000000e-001	6.653586e-005	3.323974e-005	1.665225e-005	8.311791e-006
9.990000000000001e-001	9.980379e-005	4.985960e-005	2.497837e-005	1.246769e-005
1.000000000000000e+000	9.990370e-005	4.990951e-005	2.500338e-005	1.248017e-005
Step Information: Run=45  (Run: 45/500)
0.000000000000000e+000	0.000000e+000	0.000000e+000	0.000000e+000	0.000000e+000
3.330000000000000e-001	3.328656e-005	1.663997e-005	8.319084e-006	4.146592e-006
6.660000000000000e-001	6.657311e-005	3.327994e-005	1.663817e-005	8.293185e-006
9.990000000000001e-001	9.985967e-005	4.991991e-005	2.495725e-005	1.243978e-005
1.000000000000000e+000	9.995962e-005	4.996988e-005	2.498224e-005	1.245223e-005
Step Information: Run=46  (Run: 46/500)
0.000000000000000e+000	0.000000e+000	0.000000e+000	0.000000e+000	0.000000e+000
